
**** 01/09/22 17:43:40 ******* PSpice Lite (March 2016) ******* ID# 10813 ****

 ** Profile: "SCHEMATIC1-gia_acsweep"  [ D:\Stavros\StavrosDIAFORA\Πανεπιστήμιο\7 ΕΞΑΜΗΝΟ\Ηλεκτρονική ΙΙΙ\hl3_tel_enisx9671\kyklwma_k


 ****     CIRCUIT DESCRIPTION


******************************************************************************




** Creating circuit file "gia_acsweep.cir" 
** WARNING: THIS AUTOMATICALLY GENERATED FILE MAY BE OVERWRITTEN BY SUBSEQUENT SIMULATIONS

*Libraries: 
* Profile Libraries :
* Local Libraries :
.LIB "../../../hl3_telestikos_9671-pspicefiles/hl3_telestikos_9671.lib" 
* From [PSPICE NETLIST] section of C:\Users\Stavros\AppData\Roaming\SPB_Data\cdssetup\OrCAD_PSpice\17.2.0\PSpice.ini file:
.lib "nomd.lib" 

*Analysis directives: 
.AC DEC 500 100 100Meg
.OPTIONS ADVCONV
.PROBE64 V(alias(*)) I(alias(*)) W(alias(*)) D(alias(*)) NOISE(alias(*)) 
.INC "..\SCHEMATIC1.net" 



**** INCLUDING SCHEMATIC1.net ****
* source HL3_TELESTIKOS_9671
M_M1         N00760 0 N00772 N00772 MbreakN  
+ L=1u  
+ W=8u         
M_M2         N00768 N00825 N00772 N00772 MbreakN  
+ L=1u  
+ W=8u         
M_M3         N00760 N00760 N00923 N00923 MbreakP  
+ L=1u  
+ W=1u         
M_M4         N00768 N00760 N00923 N00923 MbreakP  
+ L=1u  
+ W=1u         
M_M5         N00772 N01071 N01079 N01079 MbreakN  
+ L=1u  
+ W=1u         
M_M6         N00865 N00768 N00923 N00923 MbreakP  
+ L=1u  
+ W=13u         
M_M7         N00865 N01071 N01079 N01079 MbreakN  
+ L=1u  
+ W=6u         
M_M8         N01071 N01071 N01079 N01079 MbreakN  
+ L=1u  
+ W=1u         
C_Cc         N00768 N00865  0.5962p  TC=0,0 
C_CL         0 N00865  2.71p  TC=0,0 
I_Ib         N00923 N01071 DC 62uAdc  
V_Vdd         N00923 0 2.013Vdc
V_Vss         0 N01079 2.013Vdc
V_V1         0 N00825 DC 0Vdc AC 1Vac 

**** RESUMING gia_acsweep.cir ****
.END

**** 01/09/22 17:43:40 ******* PSpice Lite (March 2016) ******* ID# 10813 ****

 ** Profile: "SCHEMATIC1-gia_acsweep"  [ D:\Stavros\StavrosDIAFORA\Πανεπιστήμιο\7 ΕΞΑΜΗΝΟ\Ηλεκτρονική ΙΙΙ\hl3_tel_enisx9671\kyklwma_k


 ****     MOSFET MODEL PARAMETERS


******************************************************************************




               MbreakN         MbreakP         
               NMOS            PMOS            
       LEVEL    3               3            
         TPG                   -1            
           L  100.000000E-06  100.000000E-06 
           W  100.000000E-06  100.000000E-06 
          LD  164.700000E-09   22.000000E-09 
         VTO     .786           -.9056       
          KP   96.379000E-06   29.352000E-06 
       GAMMA     .5863           .4863       
         PHI     .6              .6          
      LAMBDA    0               0            
         RSH   85.45          104.7          
          IS   10.000000E-15   10.000000E-15 
          JS    0               0            
          PB     .8              .85         
        PBSW     .8              .85         
          CJ  385.410000E-06  484.470000E-06 
        CJSW  139.400000E-12  164.570000E-12 
          MJ    1.1854           .5027       
        MJSW     .125195         .217168     
        CGSO  402.410000E-12   53.752000E-12 
        CGDO  402.410000E-12   53.752000E-12 
        CGBO  361.440000E-12  336.500000E-12 
        NSUB   16.160000E+15   18.900000E+15 
         NFS    5.000000E+12    3.460000E+12 
         TOX   21.200000E-09   21.200000E-09 
          XJ  200.000000E-09  200.000000E-09 
          UO  591.7           180.2          
       UCRIT   10.000000E+03   10.000000E+03 
        VMAX  208.200000E+03  373.200000E+03 
       DELTA     .6967          1.52         
       THETA     .08122          .1248       
         ETA     .07066          .1641       
       KAPPA     .1396          9.694        
      DIOMOD    1               1            
         VFB    0               0            
        LETA    0               0            
        WETA    0               0            
          U0    0               0            
        TEMP    0               0            
         VDD    5               5            
       XPART    0               0            


**** 01/09/22 17:43:40 ******* PSpice Lite (March 2016) ******* ID# 10813 ****

 ** Profile: "SCHEMATIC1-gia_acsweep"  [ D:\Stavros\StavrosDIAFORA\Πανεπιστήμιο\7 ΕΞΑΜΗΝΟ\Ηλεκτρονική ΙΙΙ\hl3_tel_enisx9671\kyklwma_k


 ****     SMALL SIGNAL BIAS SOLUTION       TEMPERATURE =   27.000 DEG C


******************************************************************************



 NODE   VOLTAGE     NODE   VOLTAGE     NODE   VOLTAGE     NODE   VOLTAGE


(N00760)    -.3906 (N00768)    -.3906 (N00772)    -.8861 (N00825)    0.0000     

(N00865)    -.1555 (N00923)    2.0130 (N01071)    -.2703 (N01079)   -2.0130 




    VOLTAGE SOURCE CURRENTS
    NAME         CURRENT

    V_Vdd       -5.298E-04
    V_Vss       -5.298E-04
    V_V1         0.000E+00

    TOTAL POWER DISSIPATION   2.13E-03  WATTS



          JOB CONCLUDED

**** 01/09/22 17:43:40 ******* PSpice Lite (March 2016) ******* ID# 10813 ****

 ** Profile: "SCHEMATIC1-gia_acsweep"  [ D:\Stavros\StavrosDIAFORA\Πανεπιστήμιο\7 ΕΞΑΜΗΝΟ\Ηλεκτρονική ΙΙΙ\hl3_tel_enisx9671\kyklwma_k


 ****     JOB STATISTICS SUMMARY


******************************************************************************



  Total job time (using Solver 1)   =         .08
